! Touchstone generated by fitter/viewer 
!
! HL_PORTMAP 1.0
! PORT   1  (PIN U43.7, ~{CS7}', S)
! PORT   2  (PIN U18.20, ~{CS7}', S)
! PORT   3  (PIN U18.22, ~{CS7}', S)
! PORT   4  (PIN U24.10, ~{CS7}', S)
! CONNECT 1, 2, 3, 4;
! END_HL_PORTMAP
!
# HZ S  RI R 5.000000e+01
! 
1.000000000000000e+05 -4.958812799661512e-01 8.041578723045955e-04 4.974002368645547e-01 -8.105746023929596e-04 4.974200687240434e-01 -7.943464018237156e-04 5.010509058746512e-01 1.520194051422151e-05
                       4.974002368645553e-01 -8.105746023929608e-04 -4.957316044856336e-01 8.970381420378019e-04 5.039494722944914e-01 7.117906510381757e-04 4.943708132915454e-01 -1.579250759202052e-03
                       4.974200687240442e-01 -7.943464018237173e-04 5.039494722944915e-01 7.117906510381772e-04 -4.957711491394395e-01 8.646817111729313e-04 4.943905496549250e-01 -1.563152200263085e-03
                       5.010509058746503e-01 1.520194051422173e-05 4.943708132915459e-01 -1.579250759202053e-03 4.943905496549249e-01 -1.563152200263086e-03 -4.898223380914898e-01 2.341845462429958e-03
1.100000001490116e+05 -4.958543248372361e-01 8.563117991258702e-04 4.973827903240319e-01 -8.735508636049004e-04 4.974026985011555e-01 -8.557755092711113e-04 5.010577570739247e-01 9.574560790180057e-06
                       4.973827903240330e-01 -8.735508636049023e-04 -4.957038827492237e-01 9.577237105049375e-04 5.039753893967903e-01 7.558378800328714e-04 4.943334270413176e-01 -1.698399496628206e-03
                       4.974026985011558e-01 -8.557755092711103e-04 5.039753893967895e-01 7.558378800328701e-04 -4.957435783649521e-01 9.222823874916038e-04 4.943532428929541e-01 -1.680766297185803e-03
                       5.010577570739253e-01 9.574560790180960e-06 4.943334270413164e-01 -1.698399496628199e-03 4.943532428929531e-01 -1.680766297185798e-03 -4.897555054953763e-01 2.506378720515619e-03
1.240000003576279e+05 -4.958185647986486e-01 9.273541996369254e-04 4.973596028254391e-01 -9.604329548980417e-04 4.973796132035626e-01 -9.404969909198251e-04 5.010668560202032e-01 1.201863713980490e-06
                       4.973596028254393e-01 -9.604329548980420e-04 -4.956670954639610e-01 1.040654568456197e-03 5.040097814791712e-01 8.156074778159937e-04 4.942837421031486e-01 -1.862463393453039e-03
                       4.973796132035621e-01 -9.404969909198254e-04 5.040097814791712e-01 8.156074778159923e-04 -4.957069929925589e-01 1.000905250919695e-03 4.943036651946100e-01 -1.842687181194199e-03
                       5.010668560202032e-01 1.201863713977947e-06 4.942837421031480e-01 -1.862463393453035e-03 4.943036651946107e-01 -1.842687181194199e-03 -4.896667533920561e-01 2.731833216966981e-03
1.436000006496906e+05 -4.957717271143433e-01 1.023591133028954e-03 4.973291579309685e-01 -1.079965191991099e-03 4.973493039874181e-01 -1.057013237719746e-03 5.010787942710803e-01 -1.132694838309888e-05
                       4.973291579309672e-01 -1.079965191991099e-03 -4.956188933984888e-01 1.153443259940715e-03 5.040548444905049e-01 8.961867889888225e-04 4.942185098824529e-01 -2.087662709647576e-03
                       4.973493039874173e-01 -1.057013237719746e-03 5.040548444905051e-01 8.961867889888226e-04 -4.956590584717059e-01 1.107680572042317e-03 4.942385768376563e-01 -2.064895305201964e-03
                       5.010787942710794e-01 -1.132694838309519e-05 4.942185098824533e-01 -2.087662709647577e-03 4.942385768376563e-01 -2.064895305201964e-03 -4.895503450736816e-01 3.039472846240537e-03
1.710400010585785e+05 -4.957112095021190e-01 1.153267326588259e-03 4.972896915537454e-01 -1.244002058543462e-03 4.973100163664415e-01 -1.216841698876396e-03 5.010942625864261e-01 -3.013292578710552e-05
                       4.972896915537483e-01 -1.244002058543467e-03 -4.955565782815742e-01 1.306145525270243e-03 5.041131005721630e-01 1.004135647721358e-03 4.941339474528931e-01 -2.395880390112880e-03
                       4.973100163664436e-01 -1.216841698876401e-03 5.041131005721626e-01 1.004135647721355e-03 -4.955970948066971e-01 1.251992285059585e-03 4.941542067478489e-01 -2.368939629528985e-03
                       5.010942625864270e-01 -3.013292578709882e-05 4.941339474528912e-01 -2.395880390112872e-03 4.941542067478479e-01 -2.368939629528979e-03 -4.893996409630943e-01 3.457607819621869e-03
2.094560016310215e+05 -4.956340757421076e-01 1.327206960757505e-03 4.972391677598149e-01 -1.468657223849445e-03 4.972597269394355e-01 -1.435626292919980e-03 5.011140675217500e-01 -5.836539551493327e-05
                       4.972391677598140e-01 -1.468657223849439e-03 -4.954770907172967e-01 1.512097362864177e-03 5.041874094288430e-01 1.147944372708765e-03 4.940256781950383e-01 -2.816726123823546e-03
                       4.972597269394353e-01 -1.435626292919976e-03 5.041874094288429e-01 1.147944372708765e-03 -4.955180659132847e-01 1.446240162192181e-03 4.940461948535066e-01 -2.783964524435515e-03
                       5.011140675217501e-01 -5.836539551492934e-05 4.940256781950391e-01 -2.816726123823551e-03 4.940461948535068e-01 -2.783964524435515e-03 -4.892070237362011e-01 4.024066727055269e-03
2.632384024324417e+05 -4.955370149579907e-01 1.559736881471252e-03 4.971752182743553e-01 -1.775924554872737e-03 4.971960847061082e-01 -1.734705755296449e-03 5.011391717009193e-01 -1.006415650577069e-04
                       4.971752182743568e-01 -1.775924554872747e-03 -4.953769552412156e-01 1.789112377476581e-03 5.042810199181169e-01 1.338698754338084e-03 4.938885855201150e-01 -3.390453106362682e-03
                       4.971960847061093e-01 -1.734705755296459e-03 5.042810199181174e-01 1.338698754338084e-03 -4.954185274660398e-01 1.706932326538874e-03 4.939094490814413e-01 -3.349574560278629e-03
                       5.011391717009197e-01 -1.006415650576969e-04 4.938885855201146e-01 -3.390453106362681e-03 4.939094490814414e-01 -3.349574560278630e-03 -4.889636855833329e-01 4.789712966446298e-03
3.385337635544300e+05 -4.954162368976700e-01 1.870010319262545e-03 4.970950184644705e-01 -2.195961545784781e-03 4.971162905231292e-01 -2.143323347251537e-03 5.011707776942220e-01 -1.636564228461847e-04
                       4.970950184644721e-01 -2.195961545784786e-03 -4.952521498179176e-01 2.161187903821141e-03 5.043976925502355e-01 1.591038862404282e-03 4.937165125175300e-01 -4.172071468330801e-03
                       4.971162905231308e-01 -2.143323347251549e-03 5.043976925502356e-01 1.591038862404285e-03 -4.952945016746982e-01 2.056244684662001e-03 4.937378512068266e-01 -4.119875294091691e-03
                       5.011707776942227e-01 -1.636564228461863e-04 4.937165125175283e-01 -4.172071468330792e-03 4.937378512068246e-01 -4.119875294091677e-03 -4.886591696979662e-01 5.823430839468077e-03
4.439472691252136e+05 -4.952672746134724e-01 2.283879167138119e-03 4.969950639656264e-01 -2.770289845274864e-03 4.970168802981491e-01 -2.701724286764154e-03 5.012104870826789e-01 -2.570368236318680e-04
                       4.969950639656270e-01 -2.770289845274871e-03 -4.950978626634388e-01 2.660909469549656e-03 5.045419277864522e-01 1.924516050612713e-03 4.935017139931145e-01 -5.237113636379331e-03
                       4.970168802981497e-01 -2.701724286764158e-03 5.045419277864519e-01 1.924516050612709e-03 -4.951412438948148e-01 2.524220340439965e-03 4.935237205875502e-01 -5.169137245610161e-03
                       5.012104870826786e-01 -2.570368236318671e-04 4.935017139931120e-01 -5.237113636379308e-03 4.935237205875482e-01 -5.169137245610141e-03 -4.882805212260019e-01 7.219130540832801e-03
5.915261769243106e+05 -4.950846539999447e-01 2.836508927876692e-03 4.968707895625870e-01 -3.556259395085478e-03 4.968933562461116e-01 -3.465475868227972e-03 5.012605909831994e-01 -3.945492005247763e-04
                       4.968707895625878e-01 -3.556259395085477e-03 -4.949080806652504e-01 3.332804390663479e-03 5.047193525240791e-01 2.365480539986478e-03 4.932339038111306e-01 -6.689666014919507e-03
                       4.968933562461120e-01 -3.465475868227973e-03 5.047193525240788e-01 2.365480539986476e-03 -4.949528491043382e-01 3.151836899771725e-03 4.932568835758162e-01 -6.599686340684187e-03
                       5.012605909832011e-01 -3.945492005247906e-04 4.932339038111309e-01 -6.689666014919505e-03 4.932568835758167e-01 -6.599686340684188e-03 -4.878108082019258e-01 9.105501342260588e-03
7.981366478430465e+05 -4.948613526220105e-01 3.576002465615367e-03 4.967159202180911e-01 -4.633254789731423e-03 4.967395613319840e-01 -4.511472870303972e-03 5.013245988250897e-01 -5.958212790058007e-04
                       4.967159202180922e-01 -4.633254789731437e-03 -4.946749039630595e-01 4.237987842938494e-03 5.049373637674222e-01 2.949677468011818e-03 4.928986004945584e-01 -8.673510029399553e-03
                       4.967395613319834e-01 -4.511472870303976e-03 5.049373637674226e-01 2.949677468011817e-03 -4.947215999621700e-01 3.995253310298639e-03 4.929230609423502e-01 -8.552848670944474e-03
                       5.013245988250900e-01 -5.958212790057799e-04 4.928986004945570e-01 -8.673510029399539e-03 4.929230609423499e-01 -8.552848670944472e-03 -4.872265580418763e-01 1.165950562961169e-02
1.087391307129277e+06 -4.945865415929409e-01 4.568329790690618e-03 4.965208082899725e-01 -6.111179492608532e-03 4.965455648309220e-01 -5.946135312846932e-03 5.014084214917898e-01 -8.890074121118459e-04
                       4.965208082899756e-01 -6.111179492608730e-03 -4.943860419876625e-01 5.460485615715284e-03 5.052070564240014e-01 3.725701464110901e-03 4.924725607196349e-01 -1.138747794736735e-02
                       4.965455648309259e-01 -5.946135312846912e-03 5.052070564240019e-01 3.725701464111046e-03 -4.944345368045073e-01 5.131566696251469e-03 4.924988888255543e-01 -1.122402314406208e-02
                       5.014084214917880e-01 -8.890074121124564e-04 4.924725607196295e-01 -1.138747794736696e-02 4.924988888255484e-01 -1.122402314406265e-02 -4.864896742614391e-01 1.512504052485378e-02
1.376645966415507e+06 -4.943417317139482e-01 5.527612104670988e-03 4.963414719483554e-01 -7.565903980346909e-03 4.963680072853725e-01 -7.357720547530341e-03 5.014892754271840e-01 -1.190907292001183e-03
                       4.963414719483586e-01 -7.565903980347142e-03 -4.941265385399704e-01 6.648414499708918e-03 5.054497528006591e-01 4.469404923777383e-03 4.920778683709928e-01 -1.405164794210519e-02
                       4.963680072853762e-01 -7.357720547530455e-03 5.054497528006596e-01 4.469404923777246e-03 -4.941780049446134e-01 6.233570948158689e-03 4.921069280804258e-01 -1.384556107774042e-02
                       5.014892754271826e-01 -1.190907292001322e-03 4.920778683709887e-01 -1.405164794210540e-02 4.921069280804199e-01 -1.384556107774000e-02 -4.858137975946979e-01 1.850428063630752e-02
1.781602489416229e+06 -4.940290309555672e-01 6.833022480175005e-03 4.961047711068696e-01 -9.575508668014761e-03 4.961341198603856e-01 -9.307078303022577e-03 5.016020609130607e-01 -1.624225590979807e-03
                       4.961047711068726e-01 -9.575508668015540e-03 -4.937918682047153e-01 8.271936143258968e-03 5.057628090350043e-01 5.473564239872789e-03 4.915509621061341e-01 -1.772366453823521e-02
                       4.961341198603880e-01 -9.307078303023025e-03 5.057628090350043e-01 5.473564239872729e-03 -4.938478843773969e-01 7.737116973803724e-03 4.915845055339032e-01 -1.745809919848247e-02
                       5.016020609130638e-01 -1.624225590979772e-03 4.915509621061329e-01 -1.772366453823453e-02 4.915845055339021e-01 -1.745809919848227e-02 -4.849199649323068e-01 2.313584551962324e-02
2.348541621617240e+06 -4.936274174316461e-01 8.610423446376051e-03 4.957875099310715e-01 -1.235221902983634e-02 4.958214830865483e-01 -1.199966960867386e-02 5.017643014611231e-01 -2.245786804104352e-03
                       4.957875099310737e-01 -1.235221902983646e-02 -4.933563631730807e-01 1.049157886703169e-02 5.061702669460243e-01 6.829537952764269e-03 4.908333400639211e-01 -2.278484044588944e-02
                       4.958214830865501e-01 -1.199966960867398e-02 5.061702669460236e-01 6.829537952764231e-03 -4.934196105369411e-01 9.789285248693316e-03 4.908744933955907e-01 -2.243634987582560e-02
                       5.017643014611252e-01 -2.245786804104334e-03 4.908333400639212e-01 -2.278484044588979e-02 4.908744933955923e-01 -2.243634987582585e-02 -4.837161915914135e-01 2.948356326132038e-02
3.142256406698655e+06 -4.931027373320236e-01 1.103103531919685e-02 4.953498867571110e-01 -1.618827390810982e-02 4.953917443721720e-01 -1.571831885659600e-02 5.020084530186999e-01 -3.139309555696663e-03
                       4.953498867571122e-01 -1.618827390811012e-02 -4.927777115632757e-01 1.352637836957656e-02 5.067118286710398e-01 8.659739150116710e-03 4.898245683975129e-01 -2.975944081719682e-02
                       4.953917443721725e-01 -1.571831885659610e-02 5.067118286710394e-01 8.659739150116556e-03 -4.928528922351206e-01 1.259040412727999e-02 4.898790298673382e-01 -2.929546269912035e-02
                       5.020084530187007e-01 -3.139309555696689e-03 4.898245683975120e-01 -2.975944081719646e-02 4.898790298673384e-01 -2.929546269912063e-02 -4.820464144585390e-01 3.818186691510377e-02
4.253457105812637e+06 -4.924000114613454e-01 1.433208780358543e-02 4.947247042152548e-01 -2.149000369654245e-02 4.947804444073340e-01 -2.085629210768227e-02 5.023916152255873e-01 -4.424973803766360e-03
                       4.947247042152563e-01 -2.149000369654234e-02 -4.919862444561756e-01 1.767919973830763e-02 5.074527320295794e-01 1.113205696574207e-02 4.883494693019199e-01 -3.937078299576444e-02
                       4.947804444073352e-01 -2.085629210768221e-02 5.074527320295792e-01 1.113205696574206e-02 -4.920818178935563e-01 1.641738997852766e-02 4.884277949929829e-01 -3.874627122212183e-02
                       5.023916152255837e-01 -4.424973803766412e-03 4.883494693019142e-01 -3.937078299576412e-02 4.884277949929770e-01 -3.874627122212124e-02 -4.796386141735262e-01 5.009933675460364e-02
5.364657804926619e+06 -4.917031761238840e-01 1.756009036230300e-02 4.940655864248925e-01 -2.673177980368132e-02 4.941385681595127e-01 -2.593498425481207e-02 5.028295695583479e-01 -5.746840984823287e-03
                       4.940655864248913e-01 -2.673177980368115e-02 -4.911853222199747e-01 2.175063697229109e-02 5.082026205354163e-01 1.352781435712697e-02 4.867616825601026e-01 -4.884631116676844e-02
                       4.941385681595115e-01 -2.593498425481203e-02 5.082026205354170e-01 1.352781435712699e-02 -4.913056496842982e-01 2.016441946454586e-02 4.868699609485054e-01 -4.806265179404599e-02
                       5.028295695583496e-01 -5.746840984823092e-03 4.867616825601041e-01 -4.884631116676862e-02 4.868699609485076e-01 -4.806265179404611e-02 -4.770780602927380e-01 6.178641048123260e-02
6.475858504040601e+06 -4.909950026156317e-01 2.073306728031978e-02 4.933623591671949e-01 -3.192636528774577e-02 4.934559530236753e-01 -3.096716258759108e-02 5.033246193525243e-01 -7.102407159024383e-03
                       4.933623591671963e-01 -3.192636528774581e-02 -4.903578844181373e-01 2.575931848435058e-02 5.089773530358770e-01 1.586442234945916e-02 4.850399774561182e-01 -5.821112296737330e-02
                       4.934559530236775e-01 -3.096716258759116e-02 5.089773530358775e-01 1.586442234945922e-02 -4.905073338341650e-01 2.385010483106716e-02 4.851842532472299e-01 -5.726980743012113e-02
                       5.033246193525230e-01 -7.102407159024248e-03 4.850399774561167e-01 -5.821112296737372e-02 4.851842532472286e-01 -5.726980743012147e-02 -4.743259466687358e-01 7.328434907526361e-02
7.587059203154583e+06 -4.902655600089436e-01 2.386077352144287e-02 4.926092376586409e-01 -3.708050119703560e-02 4.927268088452411e-01 -3.595959740028260e-02 5.038776584180850e-01 -8.491575572679261e-03
                       4.926092376586411e-01 -3.708050119703538e-02 -4.894942540767608e-01 2.971526648563319e-02 5.097859222435475e-01 1.815121865862297e-02 4.831728384045231e-01 -6.747816050058567e-02
                       4.927268088452416e-01 -3.595959740028263e-02 5.097859222435470e-01 1.815121865862292e-02 -4.896771694124563e-01 2.748450568044760e-02 4.833590987019741e-01 -6.638081322101040e-02
                       5.038776584180833e-01 -8.491575572679584e-03 4.831728384045201e-01 -6.747816050058549e-02 4.833590987019707e-01 -6.638081322100989e-02 -4.713615034797328e-01 8.461394694626917e-02
8.698259902268564e+06 -4.895087163178177e-01 2.694910017531543e-02 4.918027860977442e-01 -4.219815116770551e-02 4.919476861642100e-01 -4.091629388452681e-02 5.044887022505754e-01 -9.915179915231678e-03
                       4.918027860977449e-01 -4.219815116770555e-02 -4.885885735461851e-01 3.362446459529774e-02 5.106337584546514e-01 2.039376773614151e-02 4.811537133543412e-01 -7.665451790987658e-02
                       4.919476861642109e-01 -4.091629388452681e-02 5.106337584546516e-01 2.039376773614151e-02 -4.888092600483166e-01 3.107366965930400e-02 4.813878799672135e-01 -7.540290941439765e-02
                       5.044887022505726e-01 -9.915179915231616e-03 4.811537133543387e-01 -7.665451790987633e-02 4.813878799672110e-01 -7.540290941439751e-02 -4.681730699783947e-01 9.578605557422243e-02
9.809460601382546e+06 -4.887204692077919e-01 3.000177253017298e-02 4.909408849099378e-01 -4.728170756974890e-02 4.911164467881737e-01 -4.583969271600512e-02 5.051572593678171e-01 -1.137455734568117e-02
                       4.909408849099393e-01 -4.728170756974896e-02 -4.876371196034789e-01 3.749062844814317e-02 5.115243019835320e-01 2.259551507266868e-02 4.789788305719394e-01 -8.574399001769752e-02
                       4.911164467881746e-01 -4.583969271600511e-02 5.115243019835317e-01 2.259551507266875e-02 -4.878998349705969e-01 3.462139114687686e-02 4.792667543253869e-01 -8.434004351359234e-02
                       5.051572593678187e-01 -1.137455734568124e-02 4.789788305719393e-01 -8.574399001769772e-02 4.792667543253876e-01 -8.434004351359238e-02 -4.647541197063411e-01 1.068059634904193e-01
1.092066130049653e+07 -4.878981184171545e-01 3.302119772765429e-02 4.900222205177917e-01 -5.233259939668168e-02 4.902317551271954e-01 -5.073127507682751e-02 5.058825109023366e-01 -1.287133309857618e-02
                       4.900222205177933e-01 -5.233259939668190e-02 -4.866374706135586e-01 4.131609170941023e-02 5.124597801175504e-01 2.475861508142613e-02 4.766461236362357e-01 -9.474835701749057e-02
                       4.902317551271972e-01 -5.073127507682765e-02 5.124597801175503e-01 2.475861508142612e-02 -4.869464188677557e-01 3.813009107056974e-02 4.769935794982537e-01 -9.319415150127157e-02
                       5.058825109023346e-01 -1.287133309857608e-02 4.766461236362327e-01 -9.474835701749010e-02 4.769935794982506e-01 -9.319415150127122e-02 -4.611013002086422e-01 1.176755966279287e-01
1.203186199961051e+07 -4.870398086123832e-01 3.600895254802609e-02 4.890460012492631e-01 -5.735165095981605e-02 4.892927949863917e-01 -5.559191973999212e-02 5.066634135284641e-01 -1.440727996862234e-02
                       4.890460012492610e-01 -5.735165095981600e-02 -4.855880457600380e-01 4.510231517561096e-02 5.134416371889555e-01 2.688440819125255e-02 4.741546396832821e-01 -1.036681183412241e-01
                       4.892927949863898e-01 -5.559191973999209e-02 5.134416371889553e-01 2.688440819125255e-02 -4.859473726334050e-01 4.160132249737537e-02 4.745673223273387e-01 -1.019658896981905e-01
                       5.066634135284658e-01 -1.440727996862233e-02 4.741546396832865e-01 -1.036681183412251e-01 4.745673223273432e-01 -1.019658896981911e-01 -4.572133573941047e-01 1.283947569516868e-01
1.314306269872449e+07 -4.861442722893934e-01 3.896601797300138e-02 4.880118052921845e-01 -6.233924346493781e-02 4.882991178550700e-01 -6.042206360348185e-02 5.074987429032707e-01 -1.598428623100987e-02
